               * /home/cosmosanmol/esim-workspace/pnseq/pnseq.cir
               Transient Analysis  Sat Oct  8 23:49:42  2022
--------------------------------------------------------------------------------
Index   time            a3#branch_1_0   v1#branch       v2#branch       
--------------------------------------------------------------------------------
0	0.000000e+00	-3.79867e-49	0.000000e+00	-1.67930e-11	
1	1.000000e-07	-3.94185e-16	0.000000e+00	-1.67946e-11	
2	2.000000e-07	-4.04409e-16	0.000000e+00	-1.67948e-11	
3	4.000000e-07	-4.43010e-16	0.000000e+00	-1.67954e-11	
4	8.000000e-07	3.612492e-16	0.000000e+00	-1.67919e-11	
5	1.600000e-06	1.037827e-16	0.000000e+00	-1.67927e-11	
6	3.200000e-06	1.128870e-16	0.000000e+00	-1.67925e-11	
7	6.400000e-06	-3.64533e-16	0.000000e+00	-1.67946e-11	
8	1.000000e-05	-1.30015e-16	0.000000e+00	-1.67936e-11	
9	1.064000e-05	-1.50216e-16	0.000000e+00	-1.67935e-11	
10	1.192000e-05	-1.44046e-16	0.000000e+00	-1.67937e-11	
11	1.448000e-05	-9.29095e-17	0.000000e+00	-1.67934e-11	
12	1.960000e-05	5.075500e-16	0.000000e+00	-1.67910e-11	
13	2.960000e-05	4.741601e-16	0.000000e+00	-1.67914e-11	
14	3.960000e-05	4.349287e-16	0.000000e+00	-1.67915e-11	
15	4.960000e-05	4.493725e-16	0.000000e+00	-1.67915e-11	
16	5.960000e-05	4.366477e-16	0.000000e+00	-1.67915e-11	
17	6.960000e-05	4.324556e-16	0.000000e+00	-1.67915e-11	
18	7.960000e-05	4.197111e-16	0.000000e+00	-1.67913e-11	
19	8.960000e-05	3.936398e-16	0.000000e+00	-1.67914e-11	
20	9.960000e-05	4.028573e-16	0.000000e+00	-1.67915e-11	
21	1.096000e-04	3.963768e-16	0.000000e+00	-1.67913e-11	
22	1.196000e-04	4.091615e-16	0.000000e+00	-1.67914e-11	
23	1.296000e-04	3.928095e-16	0.000000e+00	-1.67914e-11	
24	1.396000e-04	4.006862e-16	0.000000e+00	-1.67912e-11	
25	1.496000e-04	3.847954e-16	0.000000e+00	-1.67912e-11	
26	1.596000e-04	3.328286e-16	0.000000e+00	-1.67915e-11	
27	1.696000e-04	3.542481e-16	0.000000e+00	-1.67915e-11	
28	1.796000e-04	3.476088e-16	0.000000e+00	-1.67915e-11	
29	1.896000e-04	3.491374e-16	0.000000e+00	-1.67914e-11	
30	1.996000e-04	3.476419e-16	0.000000e+00	-1.67913e-11	
31	2.096000e-04	3.476528e-16	0.000000e+00	-1.67913e-11	
32	2.196000e-04	3.470338e-16	0.000000e+00	-1.67914e-11	
33	2.296000e-04	3.474280e-16	0.000000e+00	-1.67913e-11	
34	2.396000e-04	3.170353e-16	0.000000e+00	-1.67915e-11	
35	2.496000e-04	3.236370e-16	0.000000e+00	-1.67913e-11	
36	2.596000e-04	3.139741e-16	0.000000e+00	-1.67916e-11	
37	2.696000e-04	3.074974e-16	0.000000e+00	-1.67915e-11	
38	2.796000e-04	3.105133e-16	0.000000e+00	-1.67914e-11	
39	2.896000e-04	3.087011e-16	0.000000e+00	-1.67914e-11	
40	2.996000e-04	3.004564e-16	0.000000e+00	-1.67912e-11	
41	3.096000e-04	3.102830e-16	0.000000e+00	-1.67910e-11	
42	3.196000e-04	3.208371e-16	0.000000e+00	-1.67914e-11	
43	3.296000e-04	2.857943e-16	0.000000e+00	-1.67915e-11	
44	3.396000e-04	3.223704e-16	0.000000e+00	-1.67915e-11	
45	3.496000e-04	2.756029e-16	0.000000e+00	-1.67916e-11	
46	3.596000e-04	2.633377e-16	0.000000e+00	-1.67915e-11	
47	3.696000e-04	2.518531e-16	0.000000e+00	-1.67914e-11	
48	3.796000e-04	2.477299e-16	0.000000e+00	-1.67915e-11	
49	3.896000e-04	2.601801e-16	0.000000e+00	-1.67915e-11	
50	3.996000e-04	2.391569e-16	0.000000e+00	-1.67916e-11	
51	4.096000e-04	2.426154e-16	0.000000e+00	-1.67914e-11	
52	4.196000e-04	2.525708e-16	0.000000e+00	-1.67914e-11	
53	4.296000e-04	2.377993e-16	0.000000e+00	-1.67914e-11	
54	4.396000e-04	2.077843e-16	0.000000e+00	-1.67914e-11	

Index   time            a3#branch_1_0   v1#branch       v2#branch       
--------------------------------------------------------------------------------
55	4.496000e-04	2.187183e-16	0.000000e+00	-1.67915e-11	
56	4.596000e-04	2.194564e-16	0.000000e+00	-1.67915e-11	
57	4.696000e-04	2.120763e-16	0.000000e+00	-1.67914e-11	
58	4.796000e-04	2.369201e-16	0.000000e+00	-1.67914e-11	
59	4.896000e-04	1.978907e-16	0.000000e+00	-1.67915e-11	
60	4.996000e-04	2.105254e-16	0.000000e+00	-1.67913e-11	
61	5.096000e-04	2.024285e-16	0.000000e+00	-1.67915e-11	
62	5.196000e-04	1.780144e-16	0.000000e+00	-1.67914e-11	
63	5.296000e-04	1.826405e-16	0.000000e+00	-1.67914e-11	
64	5.396000e-04	1.932181e-16	0.000000e+00	-1.67913e-11	
65	5.496000e-04	1.867633e-16	0.000000e+00	-1.67915e-11	
66	5.596000e-04	1.912175e-16	0.000000e+00	-1.67914e-11	
67	5.696000e-04	1.725929e-16	0.000000e+00	-1.67915e-11	
68	5.796000e-04	1.466768e-16	0.000000e+00	-1.67913e-11	
69	5.896000e-04	1.270392e-16	0.000000e+00	-1.67912e-11	
70	5.996000e-04	1.304658e-16	0.000000e+00	-1.67914e-11	
71	6.096000e-04	1.486341e-16	0.000000e+00	-1.67915e-11	
72	6.196000e-04	1.212505e-16	0.000000e+00	-1.67915e-11	
73	6.296000e-04	1.555858e-16	0.000000e+00	-1.67913e-11	
74	6.396000e-04	1.356307e-16	0.000000e+00	-1.67913e-11	
75	6.496000e-04	1.088031e-16	0.000000e+00	-1.67914e-11	
76	6.596000e-04	1.219562e-16	0.000000e+00	-1.67914e-11	
77	6.696000e-04	1.128757e-16	0.000000e+00	-1.67912e-11	
78	6.796000e-04	1.311290e-16	0.000000e+00	-1.67913e-11	
79	6.896000e-04	1.082304e-16	0.000000e+00	-1.67914e-11	
80	6.996000e-04	1.119345e-16	0.000000e+00	-1.67913e-11	
81	7.096000e-04	1.118621e-16	0.000000e+00	-1.67914e-11	
82	7.196000e-04	1.321957e-16	0.000000e+00	-1.67911e-11	
83	7.296000e-04	9.717688e-17	0.000000e+00	-1.67914e-11	
84	7.396000e-04	1.001183e-16	0.000000e+00	-1.67913e-11	
85	7.496000e-04	9.696501e-17	0.000000e+00	-1.67913e-11	
86	7.596000e-04	8.426991e-17	0.000000e+00	-1.67913e-11	
87	7.696000e-04	8.187894e-17	0.000000e+00	-1.67913e-11	
88	7.796000e-04	9.048847e-17	0.000000e+00	-1.67914e-11	
89	7.896000e-04	8.280992e-17	0.000000e+00	-1.67915e-11	
90	7.996000e-04	7.404528e-17	0.000000e+00	-1.67913e-11	
91	8.096000e-04	8.195181e-17	0.000000e+00	-1.67913e-11	
92	8.196000e-04	6.468534e-17	0.000000e+00	-1.67915e-11	
93	8.296000e-04	6.549328e-17	0.000000e+00	-1.67913e-11	
94	8.396000e-04	8.102576e-17	0.000000e+00	-1.67912e-11	
95	8.496000e-04	4.870339e-17	0.000000e+00	-1.67912e-11	
96	8.596000e-04	6.681156e-17	0.000000e+00	-1.67916e-11	
97	8.696000e-04	6.908306e-17	0.000000e+00	-1.67913e-11	
98	8.796000e-04	5.062433e-17	0.000000e+00	-1.67913e-11	
99	8.896000e-04	3.994731e-17	0.000000e+00	-1.67914e-11	
100	8.996000e-04	5.477472e-17	0.000000e+00	-1.67912e-11	
101	9.096000e-04	3.133186e-17	0.000000e+00	-1.67914e-11	
102	9.196000e-04	3.172095e-17	0.000000e+00	-1.67913e-11	
103	9.296000e-04	2.762376e-17	0.000000e+00	-1.67911e-11	
104	9.396000e-04	6.711025e-17	0.000000e+00	-1.67912e-11	
105	9.496000e-04	4.571425e-17	0.000000e+00	-1.67913e-11	
106	9.596000e-04	4.353600e-17	0.000000e+00	-1.67916e-11	
107	9.696000e-04	4.536606e-17	0.000000e+00	-1.67913e-11	
108	9.796000e-04	3.202275e-17	0.000000e+00	-1.67912e-11	
109	9.896000e-04	8.019957e-17	0.000000e+00	-1.67912e-11	
110	9.996000e-04	4.034744e-17	0.000000e+00	-1.67913e-11	
111	1.009600e-03	3.217186e-17	0.000000e+00	-1.67912e-11	
112	1.010000e-03	-8.85562e-17	0.000000e+00	-1.67916e-11	

Index   time            a3#branch_1_0   v1#branch       v2#branch       
--------------------------------------------------------------------------------
113	1.010800e-03	-2.65061e-16	0.000000e+00	-1.67924e-11	
114	1.012400e-03	-3.15870e-16	0.000000e+00	-1.67925e-11	
115	1.015600e-03	-8.01508e-16	0.000000e+00	-1.67945e-11	
116	1.020000e-03	-5.74863e-16	0.000000e+00	-1.67938e-11	
117	1.020640e-03	-5.73694e-16	0.000000e+00	-1.67935e-11	
118	1.021920e-03	-5.52091e-16	0.000000e+00	-1.67936e-11	
119	1.024480e-03	-4.31178e-16	0.000000e+00	-1.67930e-11	
120	1.029600e-03	8.171528e-17	0.000000e+00	-1.67910e-11	
121	1.039600e-03	6.152540e-17	0.000000e+00	-1.67911e-11	
122	1.049600e-03	3.260969e-17	0.000000e+00	-1.67913e-11	
123	1.059600e-03	5.688606e-17	0.000000e+00	-1.67914e-11	
124	1.069600e-03	4.736337e-17	0.000000e+00	-1.67912e-11	
125	1.079600e-03	3.885669e-17	0.000000e+00	-1.67912e-11	
126	1.089600e-03	3.820688e-17	0.000000e+00	-1.67912e-11	
127	1.099600e-03	1.023402e-17	0.000000e+00	-1.67914e-11	
128	1.109600e-03	3.324907e-17	0.000000e+00	-1.67912e-11	
129	1.119600e-03	2.812568e-17	0.000000e+00	-1.67912e-11	
130	1.129600e-03	1.897901e-17	0.000000e+00	-1.67911e-11	
131	1.139600e-03	1.358422e-17	0.000000e+00	-1.67911e-11	
132	1.149600e-03	-5.65398e-18	0.000000e+00	-1.67914e-11	
133	1.159600e-03	1.970643e-17	0.000000e+00	-1.67913e-11	
134	1.169600e-03	4.288018e-17	0.000000e+00	-1.67912e-11	
135	1.179600e-03	2.011629e-17	0.000000e+00	-1.67909e-11	
136	1.189600e-03	5.308161e-18	0.000000e+00	-1.67912e-11	
137	1.199600e-03	2.521973e-17	0.000000e+00	-1.67911e-11	
138	1.209600e-03	6.891476e-18	0.000000e+00	-1.67911e-11	
139	1.219600e-03	1.911124e-17	0.000000e+00	-1.67909e-11	
140	1.229600e-03	1.226801e-17	0.000000e+00	-1.67912e-11	
141	1.239600e-03	-5.57626e-18	0.000000e+00	-1.67914e-11	
142	1.249600e-03	-7.67324e-20	0.000000e+00	-1.67912e-11	
143	1.259600e-03	4.479993e-17	0.000000e+00	-1.67912e-11	
144	1.269600e-03	1.984578e-17	0.000000e+00	-1.67912e-11	
145	1.279600e-03	6.085990e-18	0.000000e+00	-1.67914e-11	
146	1.289600e-03	1.190727e-17	0.000000e+00	-1.67914e-11	
147	1.299600e-03	2.041930e-17	0.000000e+00	-1.67911e-11	
148	1.309600e-03	3.533367e-18	0.000000e+00	-1.67912e-11	
149	1.319600e-03	-4.18569e-18	0.000000e+00	-1.67913e-11	
150	1.329600e-03	-4.36539e-17	0.000000e+00	-1.67914e-11	
151	1.339600e-03	-3.49391e-17	0.000000e+00	-1.67914e-11	
152	1.349600e-03	-4.70996e-17	0.000000e+00	-1.67914e-11	
153	1.359600e-03	-4.30696e-17	0.000000e+00	-1.67914e-11	
154	1.369600e-03	-2.71046e-17	0.000000e+00	-1.67914e-11	
155	1.379600e-03	-3.19814e-17	0.000000e+00	-1.67915e-11	
156	1.389600e-03	-2.97121e-17	0.000000e+00	-1.67912e-11	
157	1.399600e-03	-4.60728e-17	0.000000e+00	-1.67912e-11	
158	1.409600e-03	-6.12931e-17	0.000000e+00	-1.67912e-11	
159	1.419600e-03	-4.32450e-17	0.000000e+00	-1.67913e-11	
160	1.429600e-03	-4.62081e-17	0.000000e+00	-1.67913e-11	
161	1.439600e-03	-7.68896e-17	0.000000e+00	-1.67913e-11	
162	1.449600e-03	-6.66240e-17	0.000000e+00	-1.67913e-11	
163	1.459600e-03	-6.44999e-17	0.000000e+00	-1.67912e-11	
164	1.469600e-03	-5.70775e-17	0.000000e+00	-1.67913e-11	
165	1.479600e-03	-6.82128e-17	0.000000e+00	-1.67913e-11	
166	1.489600e-03	-6.11251e-17	0.000000e+00	-1.67914e-11	
167	1.499600e-03	-9.75303e-17	0.000000e+00	-1.67912e-11	
168	1.509600e-03	-9.06073e-17	0.000000e+00	-1.67913e-11	
169	1.519600e-03	-6.82680e-17	0.000000e+00	-1.67913e-11	
170	1.529600e-03	-8.19488e-17	0.000000e+00	-1.67914e-11	

Index   time            a3#branch_1_0   v1#branch       v2#branch       
--------------------------------------------------------------------------------
171	1.539600e-03	-6.46010e-17	0.000000e+00	-1.67912e-11	
172	1.549600e-03	-7.94038e-17	0.000000e+00	-1.67914e-11	
173	1.559600e-03	-5.53389e-17	0.000000e+00	-1.67910e-11	
174	1.569600e-03	-5.54341e-17	0.000000e+00	-1.67912e-11	
175	1.579600e-03	-5.82196e-17	0.000000e+00	-1.67913e-11	
176	1.589600e-03	-5.70796e-17	0.000000e+00	-1.67912e-11	
177	1.599600e-03	-5.56889e-17	0.000000e+00	-1.67911e-11	
178	1.609600e-03	-4.68772e-17	0.000000e+00	-1.67911e-11	
179	1.619600e-03	-6.66146e-17	0.000000e+00	-1.67911e-11	
180	1.629600e-03	-7.95952e-17	0.000000e+00	-1.67913e-11	
181	1.639600e-03	-7.29781e-17	0.000000e+00	-1.67912e-11	
182	1.649600e-03	-8.28802e-17	0.000000e+00	-1.67914e-11	
183	1.659600e-03	-7.99777e-17	0.000000e+00	-1.67912e-11	
184	1.669600e-03	-8.43137e-17	0.000000e+00	-1.67914e-11	
185	1.679600e-03	-7.52812e-17	0.000000e+00	-1.67912e-11	
186	1.689600e-03	-6.50979e-17	0.000000e+00	-1.67911e-11	
187	1.699600e-03	-7.09286e-17	0.000000e+00	-1.67911e-11	
188	1.709600e-03	-6.45916e-17	0.000000e+00	-1.67911e-11	
189	1.719600e-03	-7.11208e-17	0.000000e+00	-1.67911e-11	
190	1.729600e-03	-7.57816e-17	0.000000e+00	-1.67912e-11	
191	1.739600e-03	-9.21795e-17	0.000000e+00	-1.67913e-11	
192	1.749600e-03	-9.33280e-17	0.000000e+00	-1.67913e-11	
193	1.759600e-03	-7.56196e-17	0.000000e+00	-1.67914e-11	
194	1.769600e-03	-8.56613e-17	0.000000e+00	-1.67913e-11	
195	1.779600e-03	-8.93611e-17	0.000000e+00	-1.67912e-11	
196	1.789600e-03	-9.64333e-17	0.000000e+00	-1.67913e-11	
197	1.799600e-03	-5.43900e-17	0.000000e+00	-1.67910e-11	
198	1.809600e-03	-1.02830e-16	0.000000e+00	-1.67913e-11	
199	1.819600e-03	-8.69280e-17	0.000000e+00	-1.67911e-11	
200	1.829600e-03	-7.86674e-17	0.000000e+00	-1.67913e-11	
201	1.839600e-03	-8.13781e-17	0.000000e+00	-1.67912e-11	
202	1.849600e-03	-4.86256e-17	0.000000e+00	-1.67910e-11	
203	1.859600e-03	-1.02255e-16	0.000000e+00	-1.67913e-11	
204	1.869600e-03	-8.09701e-17	0.000000e+00	-1.67912e-11	
205	1.879600e-03	-8.04317e-17	0.000000e+00	-1.67910e-11	
206	1.889600e-03	-8.60948e-17	0.000000e+00	-1.67913e-11	
207	1.899600e-03	-1.03587e-16	0.000000e+00	-1.67911e-11	
208	1.909600e-03	-5.13274e-17	0.000000e+00	-1.67911e-11	
209	1.919600e-03	-8.75273e-17	0.000000e+00	-1.67911e-11	
210	1.929600e-03	-9.41896e-17	0.000000e+00	-1.67911e-11	
211	1.939600e-03	-5.60532e-17	0.000000e+00	-1.67912e-11	
212	1.949600e-03	-1.35840e-16	0.000000e+00	-1.67914e-11	
213	1.959600e-03	-1.11624e-16	0.000000e+00	-1.67913e-11	
214	1.969600e-03	-1.26447e-16	0.000000e+00	-1.67913e-11	
215	1.979600e-03	-1.31887e-16	0.000000e+00	-1.67916e-11	
216	1.989600e-03	-1.26171e-16	0.000000e+00	-1.67911e-11	
217	1.999600e-03	-1.21819e-16	0.000000e+00	-1.67912e-11	
218	2.000000e-03	-1.78178e-16	0.000000e+00	-1.67914e-11	
219	2.000800e-03	-4.23392e-16	0.000000e+00	-1.67924e-11	
220	2.002400e-03	-4.35869e-16	0.000000e+00	-1.67923e-11	
221	2.002402e-03	-2.45757e-16	0.000000e+00	-1.67919e-11	
222	2.002402e-03	-5.20832e-05	0.000000e+00	6.901417e-06	
223	2.002402e-03	-6.27051e-05	0.000000e+00	8.209906e-06	
224	2.002402e-03	-5.31999e-05	0.000000e+00	7.178658e-06	
225	2.002402e-03	-6.05886e-05	0.000000e+00	8.186249e-06	
226	2.002402e-03	-5.16067e-05	0.000000e+00	7.392638e-06	
227	2.002402e-03	-5.51318e-05	0.000000e+00	8.219335e-06	
228	2.002403e-03	-3.57538e-05	0.000000e+00	7.257293e-06	

Index   time            a3#branch_1_0   v1#branch       v2#branch       
--------------------------------------------------------------------------------
229	2.002403e-03	-3.27922e-05	0.000000e+00	7.820097e-06	
230	2.002403e-03	-3.08945e-05	0.000000e+00	9.440358e-06	
231	2.002403e-03	-4.89289e-05	0.000000e+00	1.748233e-05	
232	2.002403e-03	-4.76487e-05	0.000000e+00	3.597479e-06	
233	2.002403e-03	-4.10205e-05	0.000000e+00	-2.28594e-05	
234	2.002403e-03	-3.65411e-05	0.000000e+00	-3.37612e-05	
235	2.002403e-03	-3.09527e-06	0.000000e+00	-4.68335e-05	
236	2.002403e-03	2.233964e-05	0.000000e+00	-5.51358e-05	
237	2.002403e-03	1.353454e-05	0.000000e+00	-4.74681e-05	
238	2.002403e-03	1.562446e-05	0.000000e+00	-4.35341e-05	
239	2.002403e-03	1.078283e-05	0.000000e+00	-3.60518e-05	
240	2.002403e-03	9.593654e-06	0.000000e+00	-2.74568e-05	
241	2.002403e-03	3.847932e-06	0.000000e+00	-1.55288e-05	
242	2.002403e-03	3.232168e-06	0.000000e+00	-9.75542e-06	
243	2.002404e-03	7.849696e-08	0.000000e+00	-4.23607e-06	
244	2.002404e-03	1.192577e-06	0.000000e+00	-2.87569e-06	
245	2.002404e-03	-6.38369e-07	0.000000e+00	-6.99623e-07	
246	2.002404e-03	7.887745e-07	0.000000e+00	-6.83851e-07	
247	2.002405e-03	-7.34652e-07	0.000000e+00	2.809276e-07	
248	2.002406e-03	7.301018e-07	0.000000e+00	-3.00898e-07	
249	2.002408e-03	-7.25615e-07	0.000000e+00	2.973315e-07	
250	2.002411e-03	7.241523e-07	0.000000e+00	-2.98862e-07	
251	2.002418e-03	-7.22220e-07	0.000000e+00	2.959343e-07	
252	2.002431e-03	7.224560e-07	0.000000e+00	-2.98137e-07	
253	2.002456e-03	-7.21375e-07	0.000000e+00	2.955967e-07	
254	2.002508e-03	7.220077e-07	0.000000e+00	-2.97882e-07	
255	2.002611e-03	-7.21207e-07	0.000000e+00	2.956292e-07	
256	2.002817e-03	7.218258e-07	0.000000e+00	-2.97622e-07	
257	2.003229e-03	-7.21268e-07	0.000000e+00	2.959272e-07	
258	2.004054e-03	7.216577e-07	0.000000e+00	-2.97212e-07	
259	2.005703e-03	-7.21398e-07	0.000000e+00	2.963255e-07	
260	2.009001e-03	7.215374e-07	0.000000e+00	-2.96885e-07	
261	2.010000e-03	-7.21442e-07	0.000000e+00	2.964778e-07	
262	2.010491e-03	3.510243e-11	0.000000e+00	-1.85626e-10	
263	2.011473e-03	3.726386e-11	0.000000e+00	-1.72955e-10	
264	2.013438e-03	2.349556e-11	0.000000e+00	-1.51531e-10	
265	2.017366e-03	2.148478e-11	0.000000e+00	-1.25935e-10	
266	2.025224e-03	5.912628e-12	0.000000e+00	-9.76241e-11	
267	2.035224e-03	7.976557e-12	0.000000e+00	-8.22437e-11	
268	2.045224e-03	-1.20038e-12	0.000000e+00	-7.23541e-11	
269	2.055224e-03	4.209643e-12	0.000000e+00	-6.69967e-11	
270	2.065224e-03	-3.52257e-12	0.000000e+00	-6.14861e-11	
271	2.075224e-03	2.702262e-12	0.000000e+00	-5.87381e-11	
272	2.085224e-03	-4.53914e-12	0.000000e+00	-5.48858e-11	
273	2.095224e-03	1.998245e-12	0.000000e+00	-5.32743e-11	
274	2.105224e-03	-5.03554e-12	0.000000e+00	-5.02258e-11	
275	2.115224e-03	1.645756e-12	0.000000e+00	-4.92283e-11	
276	2.125224e-03	-5.28645e-12	0.000000e+00	-4.66435e-11	
277	2.135224e-03	1.469179e-12	0.000000e+00	-4.60298e-11	
278	2.145224e-03	-5.40878e-12	0.000000e+00	-4.37436e-11	
279	2.155224e-03	1.388171e-12	0.000000e+00	-4.33940e-11	
280	2.165224e-03	-5.45921e-12	0.000000e+00	-4.13167e-11	
281	2.175224e-03	1.361831e-12	0.000000e+00	-4.11615e-11	
282	2.185224e-03	-5.46782e-12	0.000000e+00	-3.92368e-11	
283	2.195224e-03	1.367649e-12	0.000000e+00	-3.92317e-11	
284	2.205224e-03	-5.45161e-12	0.000000e+00	-3.74236e-11	
285	2.215224e-03	1.392608e-12	0.000000e+00	-3.75398e-11	
286	2.225224e-03	-5.42059e-12	0.000000e+00	-3.58224e-11	

Index   time            a3#branch_1_0   v1#branch       v2#branch       
--------------------------------------------------------------------------------
287	2.235224e-03	1.428978e-12	0.000000e+00	-3.60388e-11	
288	2.245224e-03	-5.38093e-12	0.000000e+00	-3.43940e-11	
289	2.255224e-03	1.471923e-12	0.000000e+00	-3.46947e-11	
290	2.265224e-03	-5.33635e-12	0.000000e+00	-3.31082e-11	
291	2.275224e-03	1.518376e-12	0.000000e+00	-3.34822e-11	
292	2.285224e-03	-5.28943e-12	0.000000e+00	-3.19443e-11	
293	2.295224e-03	1.566337e-12	0.000000e+00	-3.23819e-11	
294	2.305224e-03	-5.24159e-12	0.000000e+00	-3.08829e-11	
295	2.315224e-03	1.614663e-12	0.000000e+00	-3.13776e-11	
296	2.325224e-03	-5.19395e-12	0.000000e+00	-2.99120e-11	
297	2.335224e-03	1.662458e-12	0.000000e+00	-3.04579e-11	
298	2.345224e-03	-5.14706e-12	0.000000e+00	-2.90191e-11	
299	2.355224e-03	1.709258e-12	0.000000e+00	-2.96114e-11	
300	2.365224e-03	-5.10129e-12	0.000000e+00	-2.81953e-11	
301	2.375224e-03	1.754839e-12	0.000000e+00	-2.88301e-11	
302	2.385224e-03	-5.05691e-12	0.000000e+00	-2.74323e-11	
303	2.395224e-03	1.798939e-12	0.000000e+00	-2.81067e-11	
304	2.405224e-03	-5.01408e-12	0.000000e+00	-2.67241e-11	
305	2.415224e-03	1.841492e-12	0.000000e+00	-2.74350e-11	
306	2.425224e-03	-4.97277e-12	0.000000e+00	-2.60654e-11	
307	2.435224e-03	1.882498e-12	0.000000e+00	-2.68107e-11	
308	2.445224e-03	-4.93301e-12	0.000000e+00	-2.54505e-11	
309	2.455224e-03	1.921959e-12	0.000000e+00	-2.62281e-11	
310	2.465224e-03	-4.89478e-12	0.000000e+00	-2.48762e-11	
311	2.475224e-03	1.959953e-12	0.000000e+00	-2.56846e-11	
312	2.485224e-03	-4.85802e-12	0.000000e+00	-2.43382e-11	
313	2.495224e-03	1.996462e-12	0.000000e+00	-2.51763e-11	
314	2.505224e-03	-4.82267e-12	0.000000e+00	-2.38342e-11	
315	2.515224e-03	2.031580e-12	0.000000e+00	-2.47006e-11	
316	2.525224e-03	-4.78871e-12	0.000000e+00	-2.33613e-11	
317	2.535224e-03	2.065438e-12	0.000000e+00	-2.42540e-11	
318	2.545224e-03	-4.75597e-12	0.000000e+00	-2.29167e-11	
319	2.555224e-03	2.098093e-12	0.000000e+00	-2.38355e-11	
320	2.565224e-03	-4.72444e-12	0.000000e+00	-2.24984e-11	
321	2.575224e-03	2.129547e-12	0.000000e+00	-2.34420e-11	
322	2.585224e-03	-4.69401e-12	0.000000e+00	-2.21045e-11	
323	2.595224e-03	2.159915e-12	0.000000e+00	-2.30725e-11	
324	2.605224e-03	-4.66464e-12	0.000000e+00	-2.17336e-11	
325	2.615224e-03	2.189329e-12	0.000000e+00	-2.27254e-11	
326	2.625224e-03	-4.63623e-12	0.000000e+00	-2.13840e-11	
327	2.635224e-03	2.217726e-12	0.000000e+00	-2.23988e-11	
328	2.645224e-03	-4.60876e-12	0.000000e+00	-2.10543e-11	
329	2.655224e-03	2.245280e-12	0.000000e+00	-2.20917e-11	
330	2.665224e-03	-4.58214e-12	0.000000e+00	-2.07434e-11	
331	2.675224e-03	2.272012e-12	0.000000e+00	-2.18029e-11	
